
T151C 000:657 SEGGER J-Link V4.15n (beta) Log File (0000ms, 0655ms total)
T151C 000:657 DLL Compiled: Jun 18 2010 19:55:09 (0000ms, 0655ms total)
T151C 000:657 Logging started @ 2018-06-12 11:25 (0000ms, 0655ms total)
T151C 000:657 JLINK_SetWarnOutHandler(...) (0000ms, 0655ms total)
T151C 000:657 JLINK_OpenEx(...)
Firmware: J-Link ARM V8 compiled May 20 2010 17:07:46
Hardware: V8.00
S/N: 304423265
Feature(s): RDI,FlashDL,FlashBP,JFlash,GDBFULL  returns O.K. (0065ms, 0655ms total)
T151C 000:722 JLINK_SetErrorOutHandler(...) (0000ms, 0720ms total)
T151C 000:722 JLINK_ExecCommand("ProjectFile = "D:\project\ÉÌÓÃ¸î²Ý»ú2018\MotorDriver-mower-backdriver\Project\JLinkSettings.ini"", ...)  returns 0x00 (0001ms, 0720ms total)
T151C 000:725 JLINK_ExecCommand("DisableConnectionTimeout", ...)  returns 0x00 (0000ms, 0721ms total)
T151C 000:725 JLINK_TIF_Select(JLINKARM_TIF_SWD)  returns 0x00 (0002ms, 0721ms total)
T151C 000:727 JLINK_SetSpeed(2000) (0001ms, 0723ms total)
T151C 000:728 JLINK_GetHardwareVersion()  returns 0x13880 (0000ms, 0724ms total)
T151C 000:728 JLINK_GetDLLVersion()  returns 41514 (0000ms, 0724ms total)
T151C 000:728 JLINK_GetFirmwareString(...) (0000ms, 0724ms total)
T151C 000:732 JLINK_GetDLLVersion()  returns 41514 (0000ms, 0724ms total)
T151C 000:732 JLINK_GetCompileDateTime() (0000ms, 0724ms total)
T151C 000:733 JLINK_GetFirmwareString(...) (0000ms, 0724ms total)
T151C 000:734 JLINK_GetHardwareVersion()  returns 0x13880 (0000ms, 0724ms total)
T151C 000:737 JLINK_Reset() >0x108 TIF>Found SWD-DP with ID 0x1BA01477 >0x33 TIF> >0x33 TIF> >0x35 TIF> >0x33 TIF> >0x33 TIF> >0x9B TIF> >0x9B TIF> >0x1D7 TIF> >0x13A TIF> >0x1D7 TIF> >0x13A TIF>TPIU fitted. >0x13A TIF>ETM fitted. >0x13A TIF>  FPUnit: 6 code (BP) slots and 2 literal slots >0x13A TIF> >0x13A TIF> (0036ms, 0724ms total)
T151C 000:773 JLINK_JTAG_StoreRaw(..., 0x108 Bits)  returns 0x00 (0000ms, 0760ms total)
T151C 000:773 JLINK_JTAG_GetU32(BitPos = 227) >0x108 TIF>  returns 0x1BA01477 (0001ms, 0760ms total)
T151C 000:774 JLINK_GetDebugInfo(0x100) -- Value=0xE00FF003  returns 0x00 (0000ms, 0761ms total)
T151C 000:775 JLINK_ReadMem (0xE00FF000, 0x0018 Bytes, ...) -- CPU_ReadMem(24 bytes @ 0xE00FF000) -- Data:  03 F0 F0 FF 03 20 F0 FF 03 30 F0 FF 03 10 F0 FF ...  returns 0x00 (0002ms, 0761ms total)
T151C 000:777 JLINK_ReadMemU32(0xE000ED00, 0x0001 Items, ...) -- CPU_ReadMem(4 bytes @ 0xE000ED00) -- Data:  31 C2 1F 41  returns 0x01 (0000ms, 0763ms total)
T151C 000:778 JLINK_Halt()  returns 0x00 (0000ms, 0763ms total)
T151C 000:778 JLINK_IsHalted()  returns TRUE (0000ms, 0763ms total)
T151C 000:778 JLINK_ReadMemU32(0xE000EDF0, 0x0001 Items, ...) -- CPU_ReadMem(4 bytes @ 0xE000EDF0) -- Data:  03 00 03 00  returns 0x01 (0001ms, 0763ms total)
T151C 000:779 JLINK_WriteU32(0xE000EDF0, 0xA05F0003) -- CPU_WriteMem(4 bytes @ 0xE000EDF0)  returns 0x00 (0001ms, 0764ms total)
T151C 000:780 JLINK_WriteU32(0xE000EDFC, 0x01000000) -- CPU_WriteMem(4 bytes @ 0xE000EDFC)  returns 0x00 (0000ms, 0765ms total)
T151C 000:780 JLINK_ReadMemU32(0xE0002000, 0x0001 Items, ...) -- CPU_ReadMem(4 bytes @ 0xE0002000) -- Data:  60 02 00 00  returns 0x01 (0001ms, 0765ms total)
T151C 000:782 JLINK_ReadMemU32(0xE0001000, 0x0001 Items, ...) -- CPU_ReadMem(4 bytes @ 0xE0001000) -- Data:  00 00 00 40  returns 0x01 (0001ms, 0767ms total)
T151C 000:785 JLINK_ExecCommand("Device = STM32F107VC", ...)
                JLINK_ExecCommand("map ram 0x20000000 - 0x20004FFF", ...)  returns 0x00 (0000ms, 0000ms total)
                JLINK_AddMirrorAreaEx(Addr = 0x00000000, Size = 0x00000000) (0000ms, 0000ms total)
                returns 0x00 (0000ms, 0768ms total)
T151C 000:785 JLINK_GetHWStatus(...)  returns 0x00 (0000ms, 0768ms total)
T151C 000:789 JLINK_GetNumBPUnits(Type = 0xFFFFFF00) >0x108 TIF>Found SWD-DP with ID 0x1BA01477 >0x33 TIF> >0x33 TIF> >0x35 TIF> >0x33 TIF> >0x35 TIF> >0x33 TIF> >0x33 TIF> >0x9B TIF> >0x9B TIF> >0x1D7 TIF> >0x13A TIF> >0x13A TIF>TPIU fitted. >0x13A TIF>ETM fitted. >0x13A TIF>  FPUnit: 6 code (BP) slots and 2 literal slots >0x13A TIF> >0x13A TIF>  returns 0x06 (0020ms, 0768ms total)
T151C 000:809 JLINK_GetNumBPUnits(Type = 0xF0)  returns 0x800 (0000ms, 0788ms total)
T151C 000:809 JLINK_GetNumWPUnits()  returns 0x04 (0000ms, 0788ms total)
T151C 000:812 JLINK_GetSpeed()  returns 0x7D0 (0000ms, 0788ms total)
T151C 000:813 JLINK_ReadMemU32(0xE000E004, 0x0001 Items, ...) -- CPU_ReadMem(4 bytes @ 0xE000E004) -- Data:  02 00 00 00  returns 0x01 (0001ms, 0788ms total)
T151C 000:814 JLINK_WriteMem(0xE0001000, 0x001C Bytes, ...) -- Data:  01 00 00 00 00 00 00 00 00 00 00 00 00 00 00 00 ... -- CPU_WriteMem(28 bytes @ 0xE0001000)  returns 0x1C (0001ms, 0789ms total)
T151C 000:815 JLINK_ReadMem (0xE0001000, 0x001C Bytes, ...) -- CPU_ReadMem(28 bytes @ 0xE0001000) -- Data:  01 00 00 40 00 00 00 00 00 00 00 00 00 00 00 00 ...  returns 0x00 (0001ms, 0790ms total)
T151C 000:816 JLINK_Halt()  returns 0x00 (0000ms, 0791ms total)
T151C 000:817 JLINK_IsHalted()  returns TRUE (0000ms, 0792ms total)
T151C 000:822 JLINK_WriteMem(0x20000000, 0x0164 Bytes, ...) -- Data:  00 BE 0A E0 0D 78 2D 06 68 40 08 24 40 00 00 D3 ... -- CPU_WriteMem(356 bytes @ 0x20000000)  returns 0x164 (0004ms, 0792ms total)
T151C 000:826 JLINK_WriteReg(R0, 0x08000000)  returns 0x00 (0000ms, 0796ms total)
T151C 000:826 JLINK_WriteReg(R1, 0x017D7840)  returns 0x00 (0000ms, 0796ms total)
T151C 000:826 JLINK_WriteReg(R2, 0x00000001)  returns 0x00 (0000ms, 0796ms total)
T151C 000:826 JLINK_WriteReg(R3, 0x00000000)  returns 0x00 (0000ms, 0796ms total)
T151C 000:826 JLINK_WriteReg(R4, 0x00000000)  returns 0x00 (0000ms, 0796ms total)
T151C 000:826 JLINK_WriteReg(R5, 0x00000000)  returns 0x00 (0000ms, 0796ms total)
T151C 000:826 JLINK_WriteReg(R6, 0x00000000)  returns 0x00 (0000ms, 0796ms total)
T151C 000:826 JLINK_WriteReg(R7, 0x00000000)  returns 0x00 (0000ms, 0796ms total)
T151C 000:826 JLINK_WriteReg(R8, 0x00000000)  returns 0x00 (0000ms, 0796ms total)
T151C 000:826 JLINK_WriteReg(R9, 0x20000160)  returns 0x00 (0000ms, 0796ms total)
T151C 000:826 JLINK_WriteReg(R10, 0x00000000)  returns 0x00 (0000ms, 0796ms total)
T151C 000:826 JLINK_WriteReg(R11, 0x00000000)  returns 0x00 (0000ms, 0796ms total)
T151C 000:826 JLINK_WriteReg(R12, 0x00000000)  returns 0x00 (0000ms, 0796ms total)
T151C 000:827 JLINK_WriteReg(R13, 0x20000800)  returns 0x00 (0000ms, 0797ms total)
T151C 000:827 JLINK_WriteReg(R14, 0x20000001)  returns 0x00 (0000ms, 0797ms total)
T151C 000:827 JLINK_WriteReg(R15, 0x20000038)  returns 0x00 (0000ms, 0797ms total)
T151C 000:827 JLINK_WriteReg(XPSR, 0x01000000)  returns 0x00 (0000ms, 0797ms total)
T151C 000:827 JLINK_WriteReg(MSP, 0x20000800)  returns 0x00 (0000ms, 0797ms total)
T151C 000:827 JLINK_WriteReg(PSP, 0x20000800)  returns 0x00 (0000ms, 0797ms total)
T151C 000:827 JLINK_WriteReg(CFBP, 0x00000000)  returns 0x00 (0000ms, 0797ms total)
T151C 000:827 JLINK_SetBPEx(Addr = 0x20000000, Type = 0xFFFFFFF2) -- CPU_ReadMem(2 bytes @ 0x20000000)  returns 0x00000001 (0000ms, 0797ms total)
T151C 000:827 JLINK_Go() -- CPU_WriteMem(2 bytes @ 0x20000000) -- CPU_WriteMem(4 bytes @ 0xE0002008) -- CPU_WriteMem(4 bytes @ 0xE000200C) -- CPU_WriteMem(4 bytes @ 0xE0002010) -- CPU_WriteMem(4 bytes @ 0xE0002014) -- CPU_WriteMem(4 bytes @ 0xE0002018) -- CPU_WriteMem(4 bytes @ 0xE000201C) (0009ms, 0797ms total)
T151C 000:836 JLINK_IsHalted() -- CPU_ReadMem(2 bytes @ 0x20000000)  returns TRUE (0007ms, 0806ms total)
T151C 000:843 JLINK_ReadReg(R15)  returns 0x20000000 (0000ms, 0806ms total)
T151C 000:843 JLINK_ClrBPEx(BPHandle = 0x00000001)  returns 0x00 (0000ms, 0806ms total)
T151C 000:843 JLINK_ReadReg(R0)  returns 0x00000000 (0000ms, 0806ms total)
T151C 000:843 JLINK_WriteReg(R0, 0x08000000)  returns 0x00 (0000ms, 0806ms total)
T151C 000:843 JLINK_WriteReg(R1, 0x017D7840)  returns 0x00 (0000ms, 0806ms total)
T151C 000:843 JLINK_WriteReg(R2, 0x00000001)  returns 0x00 (0000ms, 0806ms total)
T151C 000:843 JLINK_WriteReg(R3, 0x00000000)  returns 0x00 (0000ms, 0806ms total)
T151C 000:843 JLINK_WriteReg(R4, 0x00000000)  returns 0x00 (0000ms, 0806ms total)
T151C 000:843 JLINK_WriteReg(R5, 0x00000000)  returns 0x00 (0000ms, 0806ms total)
T151C 000:843 JLINK_WriteReg(R6, 0x00000000)  returns 0x00 (0000ms, 0806ms total)
T151C 000:843 JLINK_WriteReg(R7, 0x00000000)  returns 0x00 (0000ms, 0806ms total)
T151C 000:843 JLINK_WriteReg(R8, 0x00000000)  returns 0x00 (0000ms, 0806ms total)
T151C 000:843 JLINK_WriteReg(R9, 0x20000160)  returns 0x00 (0000ms, 0806ms total)
T151C 000:843 JLINK_WriteReg(R10, 0x00000000)  returns 0x00 (0000ms, 0806ms total)
T151C 000:843 JLINK_WriteReg(R11, 0x00000000)  returns 0x00 (0000ms, 0806ms total)
T151C 000:843 JLINK_WriteReg(R12, 0x00000000)  returns 0x00 (0000ms, 0806ms total)
T151C 000:843 JLINK_WriteReg(R13, 0x20000800)  returns 0x00 (0000ms, 0806ms total)
T151C 000:843 JLINK_WriteReg(R14, 0x20000001)  returns 0x00 (0000ms, 0806ms total)
T151C 000:843 JLINK_WriteReg(R15, 0x2000007C)  returns 0x00 (0000ms, 0806ms total)
T151C 000:843 JLINK_WriteReg(XPSR, 0x01000000)  returns 0x00 (0000ms, 0806ms total)
T151C 000:843 JLINK_WriteReg(MSP, 0x20000800)  returns 0x00 (0000ms, 0806ms total)
T151C 000:843 JLINK_WriteReg(PSP, 0x20000800)  returns 0x00 (0000ms, 0806ms total)
T151C 000:843 JLINK_WriteReg(CFBP, 0x00000000)  returns 0x00 (0000ms, 0806ms total)
T151C 000:843 JLINK_SetBPEx(Addr = 0x20000000, Type = 0xFFFFFFF2)  returns 0x00000002 (0000ms, 0806ms total)
T151C 000:843 JLINK_Go() -- CPU_WriteMem(4 bytes @ 0xE0002008) -- CPU_WriteMem(4 bytes @ 0xE000200C) -- CPU_WriteMem(4 bytes @ 0xE0002010) -- CPU_WriteMem(4 bytes @ 0xE0002014) -- CPU_WriteMem(4 bytes @ 0xE0002018) -- CPU_WriteMem(4 bytes @ 0xE000201C) (0007ms, 0806ms total)
T151C 000:850 JLINK_IsHalted()  returns FALSE (0001ms, 0813ms total)
T151C 000:902 JLINK_IsHalted() -- CPU_ReadMem(2 bytes @ 0x20000000)  returns TRUE (0007ms, 0813ms total)
T151C 000:909 JLINK_ReadReg(R15)  returns 0x20000000 (0000ms, 0813ms total)
T151C 000:909 JLINK_ClrBPEx(BPHandle = 0x00000002)  returns 0x00 (0000ms, 0813ms total)
T151C 000:909 JLINK_ReadReg(R0)  returns 0x00000000 (0000ms, 0813ms total)
T151C 000:961 JLINK_WriteReg(R0, 0x00000001)  returns 0x00 (0000ms, 0813ms total)
T151C 000:961 JLINK_WriteReg(R1, 0x017D7840)  returns 0x00 (0000ms, 0813ms total)
T151C 000:961 JLINK_WriteReg(R2, 0x00000001)  returns 0x00 (0000ms, 0813ms total)
T151C 000:961 JLINK_WriteReg(R3, 0x00000000)  returns 0x00 (0000ms, 0813ms total)
T151C 000:961 JLINK_WriteReg(R4, 0x00000000)  returns 0x00 (0000ms, 0813ms total)
T151C 000:961 JLINK_WriteReg(R5, 0x00000000)  returns 0x00 (0000ms, 0813ms total)
T151C 000:961 JLINK_WriteReg(R6, 0x00000000)  returns 0x00 (0000ms, 0813ms total)
T151C 000:961 JLINK_WriteReg(R7, 0x00000000)  returns 0x00 (0000ms, 0813ms total)
T151C 000:961 JLINK_WriteReg(R8, 0x00000000)  returns 0x00 (0000ms, 0813ms total)
T151C 000:961 JLINK_WriteReg(R9, 0x20000160)  returns 0x00 (0000ms, 0813ms total)
T151C 000:961 JLINK_WriteReg(R10, 0x00000000)  returns 0x00 (0000ms, 0813ms total)
T151C 000:961 JLINK_WriteReg(R11, 0x00000000)  returns 0x00 (0000ms, 0813ms total)
T151C 000:961 JLINK_WriteReg(R12, 0x00000000)  returns 0x00 (0000ms, 0813ms total)
T151C 000:961 JLINK_WriteReg(R13, 0x20000800)  returns 0x00 (0000ms, 0813ms total)
T151C 000:961 JLINK_WriteReg(R14, 0x20000001)  returns 0x00 (0000ms, 0813ms total)
T151C 000:961 JLINK_WriteReg(R15, 0x2000006A)  returns 0x00 (0000ms, 0813ms total)
T151C 000:961 JLINK_WriteReg(XPSR, 0x01000000)  returns 0x00 (0000ms, 0813ms total)
T151C 000:961 JLINK_WriteReg(MSP, 0x20000800)  returns 0x00 (0000ms, 0813ms total)
T151C 000:961 JLINK_WriteReg(PSP, 0x20000800)  returns 0x00 (0000ms, 0813ms total)
T151C 000:961 JLINK_WriteReg(CFBP, 0x00000000)  returns 0x00 (0000ms, 0813ms total)
T151C 000:961 JLINK_SetBPEx(Addr = 0x20000000, Type = 0xFFFFFFF2)  returns 0x00000003 (0000ms, 0813ms total)
T151C 000:961 JLINK_Go() -- CPU_WriteMem(4 bytes @ 0xE0002008) -- CPU_WriteMem(4 bytes @ 0xE000200C) -- CPU_WriteMem(4 bytes @ 0xE0002010) -- CPU_WriteMem(4 bytes @ 0xE0002014) -- CPU_WriteMem(4 bytes @ 0xE0002018) -- CPU_WriteMem(4 bytes @ 0xE000201C) (0007ms, 0813ms total)
T151C 000:968 JLINK_IsHalted() -- CPU_ReadMem(2 bytes @ 0x20000000)  returns TRUE (0008ms, 0820ms total)
T151C 000:976 JLINK_ReadReg(R15)  returns 0x20000000 (0000ms, 0820ms total)
T151C 000:976 JLINK_ClrBPEx(BPHandle = 0x00000003)  returns 0x00 (0000ms, 0820ms total)
T151C 000:976 JLINK_ReadReg(R0)  returns 0x00000000 (0000ms, 0820ms total)
T151C 000:982 JLINK_WriteMem(0x20000000, 0x0164 Bytes, ...) -- Data:  00 BE 0A E0 0D 78 2D 06 68 40 08 24 40 00 00 D3 ... -- CPU_WriteMem(356 bytes @ 0x20000000)  returns 0x164 (0005ms, 0820ms total)
T151C 000:987 JLINK_WriteReg(R0, 0x08000000)  returns 0x00 (0000ms, 0825ms total)
T151C 000:987 JLINK_WriteReg(R1, 0x017D7840)  returns 0x00 (0000ms, 0825ms total)
T151C 000:987 JLINK_WriteReg(R2, 0x00000002)  returns 0x00 (0000ms, 0825ms total)
T151C 000:987 JLINK_WriteReg(R3, 0x00000000)  returns 0x00 (0000ms, 0825ms total)
T151C 000:987 JLINK_WriteReg(R4, 0x00000000)  returns 0x00 (0000ms, 0825ms total)
T151C 000:987 JLINK_WriteReg(R5, 0x00000000)  returns 0x00 (0000ms, 0825ms total)
T151C 000:987 JLINK_WriteReg(R6, 0x00000000)  returns 0x00 (0000ms, 0825ms total)
T151C 000:987 JLINK_WriteReg(R7, 0x00000000)  returns 0x00 (0000ms, 0825ms total)
T151C 000:987 JLINK_WriteReg(R8, 0x00000000)  returns 0x00 (0000ms, 0825ms total)
T151C 000:987 JLINK_WriteReg(R9, 0x20000160)  returns 0x00 (0000ms, 0825ms total)
T151C 000:987 JLINK_WriteReg(R10, 0x00000000)  returns 0x00 (0000ms, 0825ms total)
T151C 000:987 JLINK_WriteReg(R11, 0x00000000)  returns 0x00 (0000ms, 0825ms total)
T151C 000:987 JLINK_WriteReg(R12, 0x00000000)  returns 0x00 (0000ms, 0825ms total)
T151C 000:987 JLINK_WriteReg(R13, 0x20000800)  returns 0x00 (0000ms, 0825ms total)
T151C 000:987 JLINK_WriteReg(R14, 0x20000001)  returns 0x00 (0000ms, 0825ms total)
T151C 000:987 JLINK_WriteReg(R15, 0x20000038)  returns 0x00 (0000ms, 0825ms total)
T151C 000:987 JLINK_WriteReg(XPSR, 0x01000000)  returns 0x00 (0000ms, 0825ms total)
T151C 000:987 JLINK_WriteReg(MSP, 0x20000800)  returns 0x00 (0000ms, 0825ms total)
T151C 000:987 JLINK_WriteReg(PSP, 0x20000800)  returns 0x00 (0000ms, 0825ms total)
T151C 000:987 JLINK_WriteReg(CFBP, 0x00000000)  returns 0x00 (0000ms, 0825ms total)
T151C 000:987 JLINK_SetBPEx(Addr = 0x20000000, Type = 0xFFFFFFF2) -- CPU_ReadMem(2 bytes @ 0x20000000)  returns 0x00000004 (0001ms, 0825ms total)
T151C 000:988 JLINK_Go() -- CPU_WriteMem(2 bytes @ 0x20000000) -- CPU_WriteMem(4 bytes @ 0xE0002008) -- CPU_WriteMem(4 bytes @ 0xE000200C) -- CPU_WriteMem(4 bytes @ 0xE0002010) -- CPU_WriteMem(4 bytes @ 0xE0002014) -- CPU_WriteMem(4 bytes @ 0xE0002018) -- CPU_WriteMem(4 bytes @ 0xE000201C) (0008ms, 0826ms total)
T151C 000:996 JLINK_IsHalted() -- CPU_ReadMem(2 bytes @ 0x20000000)  returns TRUE (0007ms, 0834ms total)
T151C 001:003 JLINK_ReadReg(R15)  returns 0x20000000 (0001ms, 0834ms total)
T151C 001:004 JLINK_ClrBPEx(BPHandle = 0x00000004)  returns 0x00 (0000ms, 0835ms total)
T151C 001:004 JLINK_ReadReg(R0)  returns 0x00000000 (0000ms, 0835ms total)
T151C 001:005 JLINK_WriteMem(0x20000164, 0x0400 Bytes, ...) -- Data:  60 20 00 20 F5 33 00 08 69 0D 00 08 6B 0D 00 08 ... -- CPU_WriteMem(1024 bytes @ 0x20000164)  returns 0x400 (0011ms, 0835ms total)
T151C 001:016 JLINK_WriteReg(R0, 0x08000000)  returns 0x00 (0000ms, 0846ms total)
T151C 001:016 JLINK_WriteReg(R1, 0x00000400)  returns 0x00 (0000ms, 0846ms total)
T151C 001:016 JLINK_WriteReg(R2, 0x20000164)  returns 0x00 (0000ms, 0846ms total)
T151C 001:016 JLINK_WriteReg(R3, 0x00000000)  returns 0x00 (0000ms, 0846ms total)
T151C 001:016 JLINK_WriteReg(R4, 0x00000000)  returns 0x00 (0000ms, 0846ms total)
T151C 001:016 JLINK_WriteReg(R5, 0x00000000)  returns 0x00 (0000ms, 0846ms total)
T151C 001:016 JLINK_WriteReg(R6, 0x00000000)  returns 0x00 (0000ms, 0846ms total)
T151C 001:016 JLINK_WriteReg(R7, 0x00000000)  returns 0x00 (0000ms, 0846ms total)
T151C 001:016 JLINK_WriteReg(R8, 0x00000000)  returns 0x00 (0000ms, 0846ms total)
T151C 001:016 JLINK_WriteReg(R9, 0x20000160)  returns 0x00 (0000ms, 0846ms total)
T151C 001:016 JLINK_WriteReg(R10, 0x00000000)  returns 0x00 (0000ms, 0846ms total)
T151C 001:016 JLINK_WriteReg(R11, 0x00000000)  returns 0x00 (0000ms, 0846ms total)
T151C 001:016 JLINK_WriteReg(R12, 0x00000000)  returns 0x00 (0000ms, 0846ms total)
T151C 001:016 JLINK_WriteReg(R13, 0x20000800)  returns 0x00 (0000ms, 0846ms total)
T151C 001:016 JLINK_WriteReg(R14, 0x20000001)  returns 0x00 (0000ms, 0846ms total)
T151C 001:016 JLINK_WriteReg(R15, 0x200000F4)  returns 0x00 (0001ms, 0846ms total)
T151C 001:017 JLINK_WriteReg(XPSR, 0x01000000)  returns 0x00 (0000ms, 0847ms total)
T151C 001:017 JLINK_WriteReg(MSP, 0x20000800)  returns 0x00 (0000ms, 0847ms total)
T151C 001:017 JLINK_WriteReg(PSP, 0x20000800)  returns 0x00 (0000ms, 0847ms total)
T151C 001:017 JLINK_WriteReg(CFBP, 0x00000000)  returns 0x00 (0000ms, 0847ms total)
T151C 001:017 JLINK_SetBPEx(Addr = 0x20000000, Type = 0xFFFFFFF2)  returns 0x00000005 (0000ms, 0847ms total)
T151C 001:017 JLINK_Go() -- CPU_WriteMem(4 bytes @ 0xE0002008) -- CPU_WriteMem(4 bytes @ 0xE000200C) -- CPU_WriteMem(4 bytes @ 0xE0002010) -- CPU_WriteMem(4 bytes @ 0xE0002014) -- CPU_WriteMem(4 bytes @ 0xE0002018) -- CPU_WriteMem(4 bytes @ 0xE000201C) (0008ms, 0847ms total)
T151C 001:025 JLINK_IsHalted()  returns FALSE (0000ms, 0855ms total)
T151C 001:076 JLINK_IsHalted() -- CPU_ReadMem(2 bytes @ 0x20000000)  returns TRUE (0006ms, 0855ms total)
T151C 001:082 JLINK_ReadReg(R15)  returns 0x20000000 (0000ms, 0855ms total)
T151C 001:082 JLINK_ClrBPEx(BPHandle = 0x00000005)  returns 0x00 (0000ms, 0855ms total)
T151C 001:082 JLINK_ReadReg(R0)  returns 0x00000000 (0000ms, 0855ms total)
T151C 001:093 JLINK_WriteMem(0x20000164, 0x0400 Bytes, ...) -- Data:  11 D2 D5 E9 06 01 B9 46 3A 46 57 46 53 46 06 F0 ... -- CPU_WriteMem(1024 bytes @ 0x20000164)  returns 0x400 (0012ms, 0855ms total)
T151C 001:105 JLINK_WriteReg(R0, 0x08000400)  returns 0x00 (0000ms, 0867ms total)
T151C 001:105 JLINK_WriteReg(R1, 0x00000400)  returns 0x00 (0000ms, 0867ms total)
T151C 001:105 JLINK_WriteReg(R2, 0x20000164)  returns 0x00 (0000ms, 0867ms total)
T151C 001:105 JLINK_WriteReg(R3, 0x00000000)  returns 0x00 (0000ms, 0867ms total)
T151C 001:105 JLINK_WriteReg(R4, 0x00000000)  returns 0x00 (0000ms, 0867ms total)
T151C 001:105 JLINK_WriteReg(R5, 0x00000000)  returns 0x00 (0000ms, 0867ms total)
T151C 001:105 JLINK_WriteReg(R6, 0x00000000)  returns 0x00 (0000ms, 0867ms total)
T151C 001:105 JLINK_WriteReg(R7, 0x00000000)  returns 0x00 (0000ms, 0867ms total)
T151C 001:105 JLINK_WriteReg(R8, 0x00000000)  returns 0x00 (0000ms, 0867ms total)
T151C 001:105 JLINK_WriteReg(R9, 0x20000160)  returns 0x00 (0000ms, 0867ms total)
T151C 001:105 JLINK_WriteReg(R10, 0x00000000)  returns 0x00 (0000ms, 0867ms total)
T151C 001:105 JLINK_WriteReg(R11, 0x00000000)  returns 0x00 (0000ms, 0867ms total)
T151C 001:105 JLINK_WriteReg(R12, 0x00000000)  returns 0x00 (0000ms, 0867ms total)
T151C 001:105 JLINK_WriteReg(R13, 0x20000800)  returns 0x00 (0000ms, 0867ms total)
T151C 001:105 JLINK_WriteReg(R14, 0x20000001)  returns 0x00 (0000ms, 0867ms total)
T151C 001:105 JLINK_WriteReg(R15, 0x200000F4)  returns 0x00 (0000ms, 0867ms total)
T151C 001:105 JLINK_WriteReg(XPSR, 0x01000000)  returns 0x00 (0000ms, 0867ms total)
T151C 001:105 JLINK_WriteReg(MSP, 0x20000800)  returns 0x00 (0000ms, 0867ms total)
T151C 001:105 JLINK_WriteReg(PSP, 0x20000800)  returns 0x00 (0000ms, 0867ms total)
T151C 001:105 JLINK_WriteReg(CFBP, 0x00000000)  returns 0x00 (0000ms, 0867ms total)
T151C 001:105 JLINK_SetBPEx(Addr = 0x20000000, Type = 0xFFFFFFF2)  returns 0x00000006 (0000ms, 0867ms total)
T151C 001:105 JLINK_Go() -- CPU_WriteMem(4 bytes @ 0xE0002008) -- CPU_WriteMem(4 bytes @ 0xE000200C) -- CPU_WriteMem(4 bytes @ 0xE0002010) -- CPU_WriteMem(4 bytes @ 0xE0002014) -- CPU_WriteMem(4 bytes @ 0xE0002018) -- CPU_WriteMem(4 bytes @ 0xE000201C) (0008ms, 0867ms total)
T151C 001:113 JLINK_IsHalted()  returns FALSE (0001ms, 0875ms total)
T151C 001:164 JLINK_IsHalted() -- CPU_ReadMem(2 bytes @ 0x20000000)  returns TRUE (0007ms, 0875ms total)
T151C 001:171 JLINK_ReadReg(R15)  returns 0x20000000 (0000ms, 0875ms total)
T151C 001:171 JLINK_ClrBPEx(BPHandle = 0x00000006)  returns 0x00 (0000ms, 0875ms total)
T151C 001:171 JLINK_ReadReg(R0)  returns 0x00000000 (0000ms, 0875ms total)
T151C 001:172 JLINK_WriteMem(0x20000164, 0x0400 Bytes, ...) -- Data:  10 BD 10 B5 01 F0 F6 F8 4F F4 00 74 A0 42 E9 48 ... -- CPU_WriteMem(1024 bytes @ 0x20000164)  returns 0x400 (0011ms, 0875ms total)
T151C 001:183 JLINK_WriteReg(R0, 0x08000800)  returns 0x00 (0000ms, 0886ms total)
T151C 001:183 JLINK_WriteReg(R1, 0x00000400)  returns 0x00 (0000ms, 0886ms total)
T151C 001:183 JLINK_WriteReg(R2, 0x20000164)  returns 0x00 (0000ms, 0886ms total)
T151C 001:183 JLINK_WriteReg(R3, 0x00000000)  returns 0x00 (0000ms, 0886ms total)
T151C 001:183 JLINK_WriteReg(R4, 0x00000000)  returns 0x00 (0000ms, 0886ms total)
T151C 001:183 JLINK_WriteReg(R5, 0x00000000)  returns 0x00 (0000ms, 0886ms total)
T151C 001:183 JLINK_WriteReg(R6, 0x00000000)  returns 0x00 (0000ms, 0886ms total)
T151C 001:183 JLINK_WriteReg(R7, 0x00000000)  returns 0x00 (0000ms, 0886ms total)
T151C 001:183 JLINK_WriteReg(R8, 0x00000000)  returns 0x00 (0000ms, 0886ms total)
T151C 001:183 JLINK_WriteReg(R9, 0x20000160)  returns 0x00 (0000ms, 0886ms total)
T151C 001:183 JLINK_WriteReg(R10, 0x00000000)  returns 0x00 (0000ms, 0886ms total)
T151C 001:183 JLINK_WriteReg(R11, 0x00000000)  returns 0x00 (0000ms, 0886ms total)
T151C 001:183 JLINK_WriteReg(R12, 0x00000000)  returns 0x00 (0000ms, 0886ms total)
T151C 001:183 JLINK_WriteReg(R13, 0x20000800)  returns 0x00 (0000ms, 0886ms total)
T151C 001:183 JLINK_WriteReg(R14, 0x20000001)  returns 0x00 (0001ms, 0886ms total)
T151C 001:184 JLINK_WriteReg(R15, 0x200000F4)  returns 0x00 (0000ms, 0887ms total)
T151C 001:184 JLINK_WriteReg(XPSR, 0x01000000)  returns 0x00 (0000ms, 0887ms total)
T151C 001:184 JLINK_WriteReg(MSP, 0x20000800)  returns 0x00 (0000ms, 0887ms total)
T151C 001:184 JLINK_WriteReg(PSP, 0x20000800)  returns 0x00 (0000ms, 0887ms total)
T151C 001:184 JLINK_WriteReg(CFBP, 0x00000000)  returns 0x00 (0000ms, 0887ms total)
T151C 001:184 JLINK_SetBPEx(Addr = 0x20000000, Type = 0xFFFFFFF2)  returns 0x00000007 (0000ms, 0887ms total)
T151C 001:184 JLINK_Go() -- CPU_WriteMem(4 bytes @ 0xE0002008) -- CPU_WriteMem(4 bytes @ 0xE000200C) -- CPU_WriteMem(4 bytes @ 0xE0002010) -- CPU_WriteMem(4 bytes @ 0xE0002014) -- CPU_WriteMem(4 bytes @ 0xE0002018) -- CPU_WriteMem(4 bytes @ 0xE000201C) (0008ms, 0887ms total)
T151C 001:192 JLINK_IsHalted()  returns FALSE (0001ms, 0895ms total)
T151C 001:244 JLINK_IsHalted() -- CPU_ReadMem(2 bytes @ 0x20000000)  returns TRUE (0006ms, 0895ms total)
T151C 001:250 JLINK_ReadReg(R15)  returns 0x20000000 (0000ms, 0895ms total)
T151C 001:250 JLINK_ClrBPEx(BPHandle = 0x00000007)  returns 0x00 (0000ms, 0895ms total)
T151C 001:250 JLINK_ReadReg(R0)  returns 0x00000000 (0000ms, 0895ms total)
T151C 001:250 JLINK_WriteMem(0x20000164, 0x0400 Bytes, ...) -- Data:  EB 07 2B 49 40 F8 0C 1B 03 F0 5E FF 01 21 40 F8 ... -- CPU_WriteMem(1024 bytes @ 0x20000164)  returns 0x400 (0012ms, 0895ms total)
T151C 001:262 JLINK_WriteReg(R0, 0x08000C00)  returns 0x00 (0000ms, 0907ms total)
T151C 001:262 JLINK_WriteReg(R1, 0x00000400)  returns 0x00 (0000ms, 0907ms total)
T151C 001:262 JLINK_WriteReg(R2, 0x20000164)  returns 0x00 (0000ms, 0907ms total)
T151C 001:262 JLINK_WriteReg(R3, 0x00000000)  returns 0x00 (0000ms, 0907ms total)
T151C 001:262 JLINK_WriteReg(R4, 0x00000000)  returns 0x00 (0000ms, 0907ms total)
T151C 001:262 JLINK_WriteReg(R5, 0x00000000)  returns 0x00 (0000ms, 0907ms total)
T151C 001:262 JLINK_WriteReg(R6, 0x00000000)  returns 0x00 (0000ms, 0907ms total)
T151C 001:262 JLINK_WriteReg(R7, 0x00000000)  returns 0x00 (0000ms, 0907ms total)
T151C 001:262 JLINK_WriteReg(R8, 0x00000000)  returns 0x00 (0000ms, 0907ms total)
T151C 001:262 JLINK_WriteReg(R9, 0x20000160)  returns 0x00 (0000ms, 0907ms total)
T151C 001:262 JLINK_WriteReg(R10, 0x00000000)  returns 0x00 (0000ms, 0907ms total)
T151C 001:262 JLINK_WriteReg(R11, 0x00000000)  returns 0x00 (0000ms, 0907ms total)
T151C 001:262 JLINK_WriteReg(R12, 0x00000000)  returns 0x00 (0000ms, 0907ms total)
T151C 001:262 JLINK_WriteReg(R13, 0x20000800)  returns 0x00 (0000ms, 0907ms total)
T151C 001:262 JLINK_WriteReg(R14, 0x20000001)  returns 0x00 (0000ms, 0907ms total)
T151C 001:262 JLINK_WriteReg(R15, 0x200000F4)  returns 0x00 (0000ms, 0907ms total)
T151C 001:262 JLINK_WriteReg(XPSR, 0x01000000)  returns 0x00 (0000ms, 0907ms total)
T151C 001:262 JLINK_WriteReg(MSP, 0x20000800)  returns 0x00 (0000ms, 0907ms total)
T151C 001:262 JLINK_WriteReg(PSP, 0x20000800)  returns 0x00 (0000ms, 0907ms total)
T151C 001:262 JLINK_WriteReg(CFBP, 0x00000000)  returns 0x00 (0001ms, 0907ms total)
T151C 001:263 JLINK_SetBPEx(Addr = 0x20000000, Type = 0xFFFFFFF2)  returns 0x00000008 (0000ms, 0908ms total)
T151C 001:263 JLINK_Go() -- CPU_WriteMem(4 bytes @ 0xE0002008) -- CPU_WriteMem(4 bytes @ 0xE000200C) -- CPU_WriteMem(4 bytes @ 0xE0002010) -- CPU_WriteMem(4 bytes @ 0xE0002014) -- CPU_WriteMem(4 bytes @ 0xE0002018) -- CPU_WriteMem(4 bytes @ 0xE000201C) (0007ms, 0908ms total)
T151C 001:270 JLINK_IsHalted()  returns FALSE (0002ms, 0915ms total)
T151C 001:323 JLINK_IsHalted() -- CPU_ReadMem(2 bytes @ 0x20000000)  returns TRUE (0006ms, 0915ms total)
T151C 001:329 JLINK_ReadReg(R15)  returns 0x20000000 (0000ms, 0915ms total)
T151C 001:329 JLINK_ClrBPEx(BPHandle = 0x00000008)  returns 0x00 (0000ms, 0915ms total)
T151C 001:329 JLINK_ReadReg(R0)  returns 0x00000000 (0000ms, 0915ms total)
T151C 001:329 JLINK_WriteMem(0x20000164, 0x0400 Bytes, ...) -- Data:  4F F4 00 71 AD F8 10 10 18 21 8D F8 13 10 02 20 ... -- CPU_WriteMem(1024 bytes @ 0x20000164)  returns 0x400 (0012ms, 0915ms total)
T151C 001:341 JLINK_WriteReg(R0, 0x08001000)  returns 0x00 (0000ms, 0927ms total)
T151C 001:341 JLINK_WriteReg(R1, 0x00000400)  returns 0x00 (0000ms, 0927ms total)
T151C 001:341 JLINK_WriteReg(R2, 0x20000164)  returns 0x00 (0000ms, 0927ms total)
T151C 001:341 JLINK_WriteReg(R3, 0x00000000)  returns 0x00 (0000ms, 0927ms total)
T151C 001:341 JLINK_WriteReg(R4, 0x00000000)  returns 0x00 (0000ms, 0927ms total)
T151C 001:341 JLINK_WriteReg(R5, 0x00000000)  returns 0x00 (0000ms, 0927ms total)
T151C 001:341 JLINK_WriteReg(R6, 0x00000000)  returns 0x00 (0000ms, 0927ms total)
T151C 001:341 JLINK_WriteReg(R7, 0x00000000)  returns 0x00 (0000ms, 0927ms total)
T151C 001:341 JLINK_WriteReg(R8, 0x00000000)  returns 0x00 (0000ms, 0927ms total)
T151C 001:341 JLINK_WriteReg(R9, 0x20000160)  returns 0x00 (0000ms, 0927ms total)
T151C 001:341 JLINK_WriteReg(R10, 0x00000000)  returns 0x00 (0000ms, 0927ms total)
T151C 001:341 JLINK_WriteReg(R11, 0x00000000)  returns 0x00 (0000ms, 0927ms total)
T151C 001:341 JLINK_WriteReg(R12, 0x00000000)  returns 0x00 (0000ms, 0927ms total)
T151C 001:341 JLINK_WriteReg(R13, 0x20000800)  returns 0x00 (0000ms, 0927ms total)
T151C 001:341 JLINK_WriteReg(R14, 0x20000001)  returns 0x00 (0000ms, 0927ms total)
T151C 001:341 JLINK_WriteReg(R15, 0x200000F4)  returns 0x00 (0000ms, 0927ms total)
T151C 001:341 JLINK_WriteReg(XPSR, 0x01000000)  returns 0x00 (0000ms, 0927ms total)
T151C 001:341 JLINK_WriteReg(MSP, 0x20000800)  returns 0x00 (0000ms, 0927ms total)
T151C 001:341 JLINK_WriteReg(PSP, 0x20000800)  returns 0x00 (0000ms, 0927ms total)
T151C 001:341 JLINK_WriteReg(CFBP, 0x00000000)  returns 0x00 (0000ms, 0927ms total)
T151C 001:341 JLINK_SetBPEx(Addr = 0x20000000, Type = 0xFFFFFFF2)  returns 0x00000009 (0000ms, 0927ms total)
T151C 001:341 JLINK_Go() -- CPU_WriteMem(4 bytes @ 0xE0002008) -- CPU_WriteMem(4 bytes @ 0xE000200C) -- CPU_WriteMem(4 bytes @ 0xE0002010) -- CPU_WriteMem(4 bytes @ 0xE0002014) -- CPU_WriteMem(4 bytes @ 0xE0002018) -- CPU_WriteMem(4 bytes @ 0xE000201C) (0008ms, 0927ms total)
T151C 001:349 JLINK_IsHalted()  returns FALSE (0001ms, 0935ms total)
T151C 001:401 JLINK_IsHalted() -- CPU_ReadMem(2 bytes @ 0x20000000)  returns TRUE (0007ms, 0935ms total)
T151C 001:408 JLINK_ReadReg(R15)  returns 0x20000000 (0000ms, 0935ms total)
T151C 001:408 JLINK_ClrBPEx(BPHandle = 0x00000009)  returns 0x00 (0000ms, 0935ms total)
T151C 001:408 JLINK_ReadReg(R0)  returns 0x00000000 (0000ms, 0935ms total)
T151C 001:408 JLINK_WriteMem(0x20000164, 0x0400 Bytes, ...) -- Data:  01 22 29 46 30 46 01 F0 01 F9 20 46 70 BD 00 00 ... -- CPU_WriteMem(1024 bytes @ 0x20000164)  returns 0x400 (0011ms, 0935ms total)
T151C 001:419 JLINK_WriteReg(R0, 0x08001400)  returns 0x00 (0000ms, 0946ms total)
T151C 001:419 JLINK_WriteReg(R1, 0x00000400)  returns 0x00 (0000ms, 0946ms total)
T151C 001:419 JLINK_WriteReg(R2, 0x20000164)  returns 0x00 (0000ms, 0946ms total)
T151C 001:419 JLINK_WriteReg(R3, 0x00000000)  returns 0x00 (0000ms, 0946ms total)
T151C 001:419 JLINK_WriteReg(R4, 0x00000000)  returns 0x00 (0000ms, 0946ms total)
T151C 001:419 JLINK_WriteReg(R5, 0x00000000)  returns 0x00 (0000ms, 0946ms total)
T151C 001:419 JLINK_WriteReg(R6, 0x00000000)  returns 0x00 (0000ms, 0946ms total)
T151C 001:419 JLINK_WriteReg(R7, 0x00000000)  returns 0x00 (0000ms, 0946ms total)
T151C 001:419 JLINK_WriteReg(R8, 0x00000000)  returns 0x00 (0000ms, 0946ms total)
T151C 001:419 JLINK_WriteReg(R9, 0x20000160)  returns 0x00 (0000ms, 0946ms total)
T151C 001:419 JLINK_WriteReg(R10, 0x00000000)  returns 0x00 (0000ms, 0946ms total)
T151C 001:419 JLINK_WriteReg(R11, 0x00000000)  returns 0x00 (0000ms, 0946ms total)
T151C 001:419 JLINK_WriteReg(R12, 0x00000000)  returns 0x00 (0000ms, 0946ms total)
T151C 001:419 JLINK_WriteReg(R13, 0x20000800)  returns 0x00 (0000ms, 0946ms total)
T151C 001:419 JLINK_WriteReg(R14, 0x20000001)  returns 0x00 (0000ms, 0946ms total)
T151C 001:419 JLINK_WriteReg(R15, 0x200000F4)  returns 0x00 (0000ms, 0946ms total)
T151C 001:419 JLINK_WriteReg(XPSR, 0x01000000)  returns 0x00 (0000ms, 0946ms total)
T151C 001:419 JLINK_WriteReg(MSP, 0x20000800)  returns 0x00 (0000ms, 0946ms total)
T151C 001:419 JLINK_WriteReg(PSP, 0x20000800)  returns 0x00 (0000ms, 0946ms total)
T151C 001:419 JLINK_WriteReg(CFBP, 0x00000000)  returns 0x00 (0000ms, 0946ms total)
T151C 001:419 JLINK_SetBPEx(Addr = 0x20000000, Type = 0xFFFFFFF2)  returns 0x0000000A (0000ms, 0946ms total)
T151C 001:419 JLINK_Go() -- CPU_WriteMem(4 bytes @ 0xE0002008) -- CPU_WriteMem(4 bytes @ 0xE000200C) -- CPU_WriteMem(4 bytes @ 0xE0002010) -- CPU_WriteMem(4 bytes @ 0xE0002014) -- CPU_WriteMem(4 bytes @ 0xE0002018) -- CPU_WriteMem(4 bytes @ 0xE000201C) (0008ms, 0946ms total)
T151C 001:427 JLINK_IsHalted()  returns FALSE (0001ms, 0954ms total)
T151C 001:479 JLINK_IsHalted() -- CPU_ReadMem(2 bytes @ 0x20000000)  returns TRUE (0007ms, 0954ms total)
T151C 001:486 JLINK_ReadReg(R15)  returns 0x20000000 (0000ms, 0954ms total)
T151C 001:486 JLINK_ClrBPEx(BPHandle = 0x0000000A)  returns 0x00 (0000ms, 0954ms total)
T151C 001:486 JLINK_ReadReg(R0)  returns 0x00000000 (0000ms, 0954ms total)
T151C 001:486 JLINK_WriteMem(0x20000164, 0x0400 Bytes, ...) -- Data:  01 F0 BB F8 08 21 28 46 01 F0 E8 FB 01 21 28 46 ... -- CPU_WriteMem(1024 bytes @ 0x20000164)  returns 0x400 (0011ms, 0954ms total)
T151C 001:497 JLINK_WriteReg(R0, 0x08001800)  returns 0x00 (0000ms, 0965ms total)
T151C 001:497 JLINK_WriteReg(R1, 0x00000400)  returns 0x00 (0000ms, 0965ms total)
T151C 001:497 JLINK_WriteReg(R2, 0x20000164)  returns 0x00 (0000ms, 0965ms total)
T151C 001:497 JLINK_WriteReg(R3, 0x00000000)  returns 0x00 (0000ms, 0965ms total)
T151C 001:497 JLINK_WriteReg(R4, 0x00000000)  returns 0x00 (0000ms, 0965ms total)
T151C 001:497 JLINK_WriteReg(R5, 0x00000000)  returns 0x00 (0000ms, 0965ms total)
T151C 001:497 JLINK_WriteReg(R6, 0x00000000)  returns 0x00 (0000ms, 0965ms total)
T151C 001:497 JLINK_WriteReg(R7, 0x00000000)  returns 0x00 (0000ms, 0965ms total)
T151C 001:497 JLINK_WriteReg(R8, 0x00000000)  returns 0x00 (0000ms, 0965ms total)
T151C 001:497 JLINK_WriteReg(R9, 0x20000160)  returns 0x00 (0000ms, 0965ms total)
T151C 001:497 JLINK_WriteReg(R10, 0x00000000)  returns 0x00 (0000ms, 0965ms total)
T151C 001:497 JLINK_WriteReg(R11, 0x00000000)  returns 0x00 (0000ms, 0965ms total)
T151C 001:497 JLINK_WriteReg(R12, 0x00000000)  returns 0x00 (0000ms, 0965ms total)
T151C 001:497 JLINK_WriteReg(R13, 0x20000800)  returns 0x00 (0000ms, 0965ms total)
T151C 001:497 JLINK_WriteReg(R14, 0x20000001)  returns 0x00 (0000ms, 0965ms total)
T151C 001:497 JLINK_WriteReg(R15, 0x200000F4)  returns 0x00 (0000ms, 0965ms total)
T151C 001:497 JLINK_WriteReg(XPSR, 0x01000000)  returns 0x00 (0000ms, 0965ms total)
T151C 001:497 JLINK_WriteReg(MSP, 0x20000800)  returns 0x00 (0000ms, 0965ms total)
T151C 001:497 JLINK_WriteReg(PSP, 0x20000800)  returns 0x00 (0000ms, 0965ms total)
T151C 001:497 JLINK_WriteReg(CFBP, 0x00000000)  returns 0x00 (0000ms, 0965ms total)
T151C 001:497 JLINK_SetBPEx(Addr = 0x20000000, Type = 0xFFFFFFF2)  returns 0x0000000B (0000ms, 0965ms total)
T151C 001:497 JLINK_Go() -- CPU_WriteMem(4 bytes @ 0xE0002008) -- CPU_WriteMem(4 bytes @ 0xE000200C) -- CPU_WriteMem(4 bytes @ 0xE0002010) -- CPU_WriteMem(4 bytes @ 0xE0002014) -- CPU_WriteMem(4 bytes @ 0xE0002018) -- CPU_WriteMem(4 bytes @ 0xE000201C) (0008ms, 0965ms total)
T151C 001:505 JLINK_IsHalted()  returns FALSE (0001ms, 0973ms total)
T151C 001:557 JLINK_IsHalted() -- CPU_ReadMem(2 bytes @ 0x20000000)  returns TRUE (0007ms, 0973ms total)
T151C 001:564 JLINK_ReadReg(R15)  returns 0x20000000 (0000ms, 0973ms total)
T151C 001:564 JLINK_ClrBPEx(BPHandle = 0x0000000B)  returns 0x00 (0000ms, 0973ms total)
T151C 001:564 JLINK_ReadReg(R0)  returns 0x00000000 (0000ms, 0973ms total)
T151C 001:564 JLINK_WriteMem(0x20000164, 0x0400 Bytes, ...) -- Data:  10 01 00 20 6C 19 00 20 FF F7 EE BA 70 B5 00 21 ... -- CPU_WriteMem(1024 bytes @ 0x20000164)  returns 0x400 (0012ms, 0973ms total)
T151C 001:576 JLINK_WriteReg(R0, 0x08001C00)  returns 0x00 (0000ms, 0985ms total)
T151C 001:576 JLINK_WriteReg(R1, 0x00000400)  returns 0x00 (0000ms, 0985ms total)
T151C 001:576 JLINK_WriteReg(R2, 0x20000164)  returns 0x00 (0000ms, 0985ms total)
T151C 001:576 JLINK_WriteReg(R3, 0x00000000)  returns 0x00 (0000ms, 0985ms total)
T151C 001:576 JLINK_WriteReg(R4, 0x00000000)  returns 0x00 (0000ms, 0985ms total)
T151C 001:576 JLINK_WriteReg(R5, 0x00000000)  returns 0x00 (0000ms, 0985ms total)
T151C 001:576 JLINK_WriteReg(R6, 0x00000000)  returns 0x00 (0000ms, 0985ms total)
T151C 001:576 JLINK_WriteReg(R7, 0x00000000)  returns 0x00 (0000ms, 0985ms total)
T151C 001:576 JLINK_WriteReg(R8, 0x00000000)  returns 0x00 (0000ms, 0985ms total)
T151C 001:576 JLINK_WriteReg(R9, 0x20000160)  returns 0x00 (0000ms, 0985ms total)
T151C 001:576 JLINK_WriteReg(R10, 0x00000000)  returns 0x00 (0000ms, 0985ms total)
T151C 001:576 JLINK_WriteReg(R11, 0x00000000)  returns 0x00 (0000ms, 0985ms total)
T151C 001:576 JLINK_WriteReg(R12, 0x00000000)  returns 0x00 (0000ms, 0985ms total)
T151C 001:576 JLINK_WriteReg(R13, 0x20000800)  returns 0x00 (0000ms, 0985ms total)
T151C 001:576 JLINK_WriteReg(R14, 0x20000001)  returns 0x00 (0000ms, 0985ms total)
T151C 001:576 JLINK_WriteReg(R15, 0x200000F4)  returns 0x00 (0000ms, 0985ms total)
T151C 001:576 JLINK_WriteReg(XPSR, 0x01000000)  returns 0x00 (0000ms, 0985ms total)
T151C 001:576 JLINK_WriteReg(MSP, 0x20000800)  returns 0x00 (0000ms, 0985ms total)
T151C 001:576 JLINK_WriteReg(PSP, 0x20000800)  returns 0x00 (0000ms, 0985ms total)
T151C 001:576 JLINK_WriteReg(CFBP, 0x00000000)  returns 0x00 (0001ms, 0985ms total)
T151C 001:577 JLINK_SetBPEx(Addr = 0x20000000, Type = 0xFFFFFFF2)  returns 0x0000000C (0000ms, 0986ms total)
T151C 001:577 JLINK_Go() -- CPU_WriteMem(4 bytes @ 0xE0002008) -- CPU_WriteMem(4 bytes @ 0xE000200C) -- CPU_WriteMem(4 bytes @ 0xE0002010) -- CPU_WriteMem(4 bytes @ 0xE0002014) -- CPU_WriteMem(4 bytes @ 0xE0002018) -- CPU_WriteMem(4 bytes @ 0xE000201C) (0007ms, 0986ms total)
T151C 001:584 JLINK_IsHalted()  returns FALSE (0001ms, 0993ms total)
T151C 001:636 JLINK_IsHalted() -- CPU_ReadMem(2 bytes @ 0x20000000)  returns TRUE (0007ms, 0993ms total)
T151C 001:643 JLINK_ReadReg(R15)  returns 0x20000000 (0000ms, 0993ms total)
T151C 001:643 JLINK_ClrBPEx(BPHandle = 0x0000000C)  returns 0x00 (0000ms, 0993ms total)
T151C 001:643 JLINK_ReadReg(R0)  returns 0x00000000 (0000ms, 0993ms total)
T151C 001:643 JLINK_WriteMem(0x20000164, 0x0400 Bytes, ...) -- Data:  00 29 D1 68 01 D0 01 43 00 E0 81 43 D1 60 70 47 ... -- CPU_WriteMem(1024 bytes @ 0x20000164)  returns 0x400 (0012ms, 0993ms total)
T151C 001:655 JLINK_WriteReg(R0, 0x08002000)  returns 0x00 (0000ms, 1005ms total)
T151C 001:655 JLINK_WriteReg(R1, 0x00000400)  returns 0x00 (0000ms, 1005ms total)
T151C 001:655 JLINK_WriteReg(R2, 0x20000164)  returns 0x00 (0000ms, 1005ms total)
T151C 001:655 JLINK_WriteReg(R3, 0x00000000)  returns 0x00 (0000ms, 1005ms total)
T151C 001:655 JLINK_WriteReg(R4, 0x00000000)  returns 0x00 (0000ms, 1005ms total)
T151C 001:655 JLINK_WriteReg(R5, 0x00000000)  returns 0x00 (0000ms, 1005ms total)
T151C 001:655 JLINK_WriteReg(R6, 0x00000000)  returns 0x00 (0000ms, 1005ms total)
T151C 001:655 JLINK_WriteReg(R7, 0x00000000)  returns 0x00 (0000ms, 1005ms total)
T151C 001:655 JLINK_WriteReg(R8, 0x00000000)  returns 0x00 (0000ms, 1005ms total)
T151C 001:655 JLINK_WriteReg(R9, 0x20000160)  returns 0x00 (0000ms, 1005ms total)
T151C 001:655 JLINK_WriteReg(R10, 0x00000000)  returns 0x00 (0000ms, 1005ms total)
T151C 001:655 JLINK_WriteReg(R11, 0x00000000)  returns 0x00 (0000ms, 1005ms total)
T151C 001:655 JLINK_WriteReg(R12, 0x00000000)  returns 0x00 (0001ms, 1005ms total)
T151C 001:656 JLINK_WriteReg(R13, 0x20000800)  returns 0x00 (0000ms, 1006ms total)
T151C 001:656 JLINK_WriteReg(R14, 0x20000001)  returns 0x00 (0000ms, 1006ms total)
T151C 001:656 JLINK_WriteReg(R15, 0x200000F4)  returns 0x00 (0000ms, 1006ms total)
T151C 001:656 JLINK_WriteReg(XPSR, 0x01000000)  returns 0x00 (0000ms, 1006ms total)
T151C 001:656 JLINK_WriteReg(MSP, 0x20000800)  returns 0x00 (0000ms, 1006ms total)
T151C 001:656 JLINK_WriteReg(PSP, 0x20000800)  returns 0x00 (0000ms, 1006ms total)
T151C 001:656 JLINK_WriteReg(CFBP, 0x00000000)  returns 0x00 (0000ms, 1006ms total)
T151C 001:656 JLINK_SetBPEx(Addr = 0x20000000, Type = 0xFFFFFFF2)  returns 0x0000000D (0000ms, 1006ms total)
T151C 001:656 JLINK_Go() -- CPU_WriteMem(4 bytes @ 0xE0002008) -- CPU_WriteMem(4 bytes @ 0xE000200C) -- CPU_WriteMem(4 bytes @ 0xE0002010) -- CPU_WriteMem(4 bytes @ 0xE0002014) -- CPU_WriteMem(4 bytes @ 0xE0002018) -- CPU_WriteMem(4 bytes @ 0xE000201C) (0007ms, 1006ms total)
T151C 001:663 JLINK_IsHalted()  returns FALSE (0001ms, 1013ms total)
T151C 001:715 JLINK_IsHalted() -- CPU_ReadMem(2 bytes @ 0x20000000)  returns TRUE (0007ms, 1013ms total)
T151C 001:722 JLINK_ReadReg(R15)  returns 0x20000000 (0000ms, 1013ms total)
T151C 001:722 JLINK_ClrBPEx(BPHandle = 0x0000000D)  returns 0x00 (0000ms, 1013ms total)
T151C 001:722 JLINK_ReadReg(R0)  returns 0x00000000 (0000ms, 1013ms total)
T151C 001:723 JLINK_WriteMem(0x20000164, 0x0400 Bytes, ...) -- Data:  04 68 23 EA 04 03 CB 60 43 79 A1 F5 80 61 10 2B ... -- CPU_WriteMem(1024 bytes @ 0x20000164)  returns 0x400 (0011ms, 1013ms total)
T151C 001:734 JLINK_WriteReg(R0, 0x08002400)  returns 0x00 (0000ms, 1024ms total)
T151C 001:734 JLINK_WriteReg(R1, 0x00000400)  returns 0x00 (0000ms, 1024ms total)
T151C 001:734 JLINK_WriteReg(R2, 0x20000164)  returns 0x00 (0000ms, 1024ms total)
T151C 001:734 JLINK_WriteReg(R3, 0x00000000)  returns 0x00 (0000ms, 1024ms total)
T151C 001:734 JLINK_WriteReg(R4, 0x00000000)  returns 0x00 (0000ms, 1024ms total)
T151C 001:734 JLINK_WriteReg(R5, 0x00000000)  returns 0x00 (0000ms, 1024ms total)
T151C 001:734 JLINK_WriteReg(R6, 0x00000000)  returns 0x00 (0001ms, 1024ms total)
T151C 001:735 JLINK_WriteReg(R7, 0x00000000)  returns 0x00 (0000ms, 1025ms total)
T151C 001:735 JLINK_WriteReg(R8, 0x00000000)  returns 0x00 (0000ms, 1025ms total)
T151C 001:735 JLINK_WriteReg(R9, 0x20000160)  returns 0x00 (0000ms, 1025ms total)
T151C 001:735 JLINK_WriteReg(R10, 0x00000000)  returns 0x00 (0000ms, 1025ms total)
T151C 001:735 JLINK_WriteReg(R11, 0x00000000)  returns 0x00 (0000ms, 1025ms total)
T151C 001:735 JLINK_WriteReg(R12, 0x00000000)  returns 0x00 (0000ms, 1025ms total)
T151C 001:735 JLINK_WriteReg(R13, 0x20000800)  returns 0x00 (0000ms, 1025ms total)
T151C 001:735 JLINK_WriteReg(R14, 0x20000001)  returns 0x00 (0000ms, 1025ms total)
T151C 001:735 JLINK_WriteReg(R15, 0x200000F4)  returns 0x00 (0000ms, 1025ms total)
T151C 001:735 JLINK_WriteReg(XPSR, 0x01000000)  returns 0x00 (0000ms, 1025ms total)
T151C 001:735 JLINK_WriteReg(MSP, 0x20000800)  returns 0x00 (0000ms, 1025ms total)
T151C 001:735 JLINK_WriteReg(PSP, 0x20000800)  returns 0x00 (0000ms, 1025ms total)
T151C 001:735 JLINK_WriteReg(CFBP, 0x00000000)  returns 0x00 (0000ms, 1025ms total)
T151C 001:735 JLINK_SetBPEx(Addr = 0x20000000, Type = 0xFFFFFFF2)  returns 0x0000000E (0000ms, 1025ms total)
T151C 001:735 JLINK_Go() -- CPU_WriteMem(4 bytes @ 0xE0002008) -- CPU_WriteMem(4 bytes @ 0xE000200C) -- CPU_WriteMem(4 bytes @ 0xE0002010) -- CPU_WriteMem(4 bytes @ 0xE0002014) -- CPU_WriteMem(4 bytes @ 0xE0002018) -- CPU_WriteMem(4 bytes @ 0xE000201C) (0008ms, 1025ms total)
T151C 001:743 JLINK_IsHalted()  returns FALSE (0001ms, 1033ms total)
T151C 001:794 JLINK_IsHalted() -- CPU_ReadMem(2 bytes @ 0x20000000)  returns TRUE (0007ms, 1033ms total)
T151C 001:801 JLINK_ReadReg(R15)  returns 0x20000000 (0000ms, 1033ms total)
T151C 001:801 JLINK_ClrBPEx(BPHandle = 0x0000000E)  returns 0x00 (0000ms, 1033ms total)
T151C 001:801 JLINK_ReadReg(R0)  returns 0x00000000 (0000ms, 1033ms total)
T151C 001:801 JLINK_WriteMem(0x20000164, 0x0400 Bytes, ...) -- Data:  01 21 08 46 FF F7 04 FC 00 21 01 20 5D E0 EF 49 ... -- CPU_WriteMem(1024 bytes @ 0x20000164)  returns 0x400 (0012ms, 1033ms total)
T151C 001:813 JLINK_WriteReg(R0, 0x08002800)  returns 0x00 (0000ms, 1045ms total)
T151C 001:813 JLINK_WriteReg(R1, 0x00000400)  returns 0x00 (0000ms, 1045ms total)
T151C 001:813 JLINK_WriteReg(R2, 0x20000164)  returns 0x00 (0000ms, 1045ms total)
T151C 001:813 JLINK_WriteReg(R3, 0x00000000)  returns 0x00 (0000ms, 1045ms total)
T151C 001:813 JLINK_WriteReg(R4, 0x00000000)  returns 0x00 (0000ms, 1045ms total)
T151C 001:813 JLINK_WriteReg(R5, 0x00000000)  returns 0x00 (0000ms, 1045ms total)
T151C 001:813 JLINK_WriteReg(R6, 0x00000000)  returns 0x00 (0000ms, 1045ms total)
T151C 001:813 JLINK_WriteReg(R7, 0x00000000)  returns 0x00 (0000ms, 1045ms total)
T151C 001:813 JLINK_WriteReg(R8, 0x00000000)  returns 0x00 (0000ms, 1045ms total)
T151C 001:813 JLINK_WriteReg(R9, 0x20000160)  returns 0x00 (0000ms, 1045ms total)
T151C 001:813 JLINK_WriteReg(R10, 0x00000000)  returns 0x00 (0000ms, 1045ms total)
T151C 001:813 JLINK_WriteReg(R11, 0x00000000)  returns 0x00 (0000ms, 1045ms total)
T151C 001:813 JLINK_WriteReg(R12, 0x00000000)  returns 0x00 (0000ms, 1045ms total)
T151C 001:813 JLINK_WriteReg(R13, 0x20000800)  returns 0x00 (0000ms, 1045ms total)
T151C 001:813 JLINK_WriteReg(R14, 0x20000001)  returns 0x00 (0000ms, 1045ms total)
T151C 001:813 JLINK_WriteReg(R15, 0x200000F4)  returns 0x00 (0000ms, 1045ms total)
T151C 001:813 JLINK_WriteReg(XPSR, 0x01000000)  returns 0x00 (0000ms, 1045ms total)
T151C 001:813 JLINK_WriteReg(MSP, 0x20000800)  returns 0x00 (0000ms, 1045ms total)
T151C 001:813 JLINK_WriteReg(PSP, 0x20000800)  returns 0x00 (0000ms, 1045ms total)
T151C 001:813 JLINK_WriteReg(CFBP, 0x00000000)  returns 0x00 (0000ms, 1045ms total)
T151C 001:813 JLINK_SetBPEx(Addr = 0x20000000, Type = 0xFFFFFFF2)  returns 0x0000000F (0000ms, 1045ms total)
T151C 001:813 JLINK_Go() -- CPU_WriteMem(4 bytes @ 0xE0002008) -- CPU_WriteMem(4 bytes @ 0xE000200C) -- CPU_WriteMem(4 bytes @ 0xE0002010) -- CPU_WriteMem(4 bytes @ 0xE0002014) -- CPU_WriteMem(4 bytes @ 0xE0002018) -- CPU_WriteMem(4 bytes @ 0xE000201C) (0008ms, 1045ms total)
T151C 001:821 JLINK_IsHalted()  returns FALSE (0001ms, 1053ms total)
T151C 001:872 JLINK_IsHalted() -- CPU_ReadMem(2 bytes @ 0x20000000)  returns TRUE (0007ms, 1053ms total)
T151C 001:879 JLINK_ReadReg(R15)  returns 0x20000000 (0000ms, 1053ms total)
T151C 001:879 JLINK_ClrBPEx(BPHandle = 0x0000000F)  returns 0x00 (0000ms, 1053ms total)
T151C 001:879 JLINK_ReadReg(R0)  returns 0x00000000 (0000ms, 1053ms total)
T151C 001:879 JLINK_WriteMem(0x20000164, 0x0400 Bytes, ...) -- Data:  00 48 01 40 30 B5 04 8C 24 F0 01 04 04 84 05 8B ... -- CPU_WriteMem(1024 bytes @ 0x20000164)  returns 0x400 (0011ms, 1053ms total)
T151C 001:890 JLINK_WriteReg(R0, 0x08002C00)  returns 0x00 (0000ms, 1064ms total)
T151C 001:891 JLINK_WriteReg(R1, 0x00000400)  returns 0x00 (0000ms, 1065ms total)
T151C 001:891 JLINK_WriteReg(R2, 0x20000164)  returns 0x00 (0000ms, 1065ms total)
T151C 001:891 JLINK_WriteReg(R3, 0x00000000)  returns 0x00 (0000ms, 1065ms total)
T151C 001:891 JLINK_WriteReg(R4, 0x00000000)  returns 0x00 (0000ms, 1065ms total)
T151C 001:891 JLINK_WriteReg(R5, 0x00000000)  returns 0x00 (0000ms, 1065ms total)
T151C 001:891 JLINK_WriteReg(R6, 0x00000000)  returns 0x00 (0000ms, 1065ms total)
T151C 001:891 JLINK_WriteReg(R7, 0x00000000)  returns 0x00 (0000ms, 1065ms total)
T151C 001:891 JLINK_WriteReg(R8, 0x00000000)  returns 0x00 (0000ms, 1065ms total)
T151C 001:891 JLINK_WriteReg(R9, 0x20000160)  returns 0x00 (0000ms, 1065ms total)
T151C 001:891 JLINK_WriteReg(R10, 0x00000000)  returns 0x00 (0000ms, 1065ms total)
T151C 001:891 JLINK_WriteReg(R11, 0x00000000)  returns 0x00 (0000ms, 1065ms total)
T151C 001:891 JLINK_WriteReg(R12, 0x00000000)  returns 0x00 (0000ms, 1065ms total)
T151C 001:891 JLINK_WriteReg(R13, 0x20000800)  returns 0x00 (0000ms, 1065ms total)
T151C 001:891 JLINK_WriteReg(R14, 0x20000001)  returns 0x00 (0000ms, 1065ms total)
T151C 001:891 JLINK_WriteReg(R15, 0x200000F4)  returns 0x00 (0000ms, 1065ms total)
T151C 001:891 JLINK_WriteReg(XPSR, 0x01000000)  returns 0x00 (0000ms, 1065ms total)
T151C 001:891 JLINK_WriteReg(MSP, 0x20000800)  returns 0x00 (0000ms, 1065ms total)
T151C 001:891 JLINK_WriteReg(PSP, 0x20000800)  returns 0x00 (0000ms, 1065ms total)
T151C 001:891 JLINK_WriteReg(CFBP, 0x00000000)  returns 0x00 (0000ms, 1065ms total)
T151C 001:891 JLINK_SetBPEx(Addr = 0x20000000, Type = 0xFFFFFFF2)  returns 0x00000010 (0000ms, 1065ms total)
T151C 001:891 JLINK_Go() -- CPU_WriteMem(4 bytes @ 0xE0002008) -- CPU_WriteMem(4 bytes @ 0xE000200C) -- CPU_WriteMem(4 bytes @ 0xE0002010) -- CPU_WriteMem(4 bytes @ 0xE0002014) -- CPU_WriteMem(4 bytes @ 0xE0002018) -- CPU_WriteMem(4 bytes @ 0xE000201C) (0008ms, 1065ms total)
T151C 001:899 JLINK_IsHalted()  returns FALSE (0001ms, 1073ms total)
T151C 001:951 JLINK_IsHalted() -- CPU_ReadMem(2 bytes @ 0x20000000)  returns TRUE (0006ms, 1073ms total)
T151C 001:957 JLINK_ReadReg(R15)  returns 0x20000000 (0000ms, 1073ms total)
T151C 001:957 JLINK_ClrBPEx(BPHandle = 0x00000010)  returns 0x00 (0000ms, 1073ms total)
T151C 001:957 JLINK_ReadReg(R0)  returns 0x00000000 (0000ms, 1073ms total)
T151C 001:958 JLINK_WriteMem(0x20000164, 0x0400 Bytes, ...) -- Data:  DF E5 00 00 00 2C 01 40 00 34 01 40 00 04 00 40 ... -- CPU_WriteMem(1024 bytes @ 0x20000164)  returns 0x400 (0012ms, 1073ms total)
T151C 001:970 JLINK_WriteReg(R0, 0x08003000)  returns 0x00 (0000ms, 1085ms total)
T151C 001:970 JLINK_WriteReg(R1, 0x00000400)  returns 0x00 (0000ms, 1085ms total)
T151C 001:970 JLINK_WriteReg(R2, 0x20000164)  returns 0x00 (0000ms, 1085ms total)
T151C 001:970 JLINK_WriteReg(R3, 0x00000000)  returns 0x00 (0000ms, 1085ms total)
T151C 001:970 JLINK_WriteReg(R4, 0x00000000)  returns 0x00 (0000ms, 1085ms total)
T151C 001:970 JLINK_WriteReg(R5, 0x00000000)  returns 0x00 (0000ms, 1085ms total)
T151C 001:970 JLINK_WriteReg(R6, 0x00000000)  returns 0x00 (0000ms, 1085ms total)
T151C 001:970 JLINK_WriteReg(R7, 0x00000000)  returns 0x00 (0000ms, 1085ms total)
T151C 001:970 JLINK_WriteReg(R8, 0x00000000)  returns 0x00 (0000ms, 1085ms total)
T151C 001:970 JLINK_WriteReg(R9, 0x20000160)  returns 0x00 (0000ms, 1085ms total)
T151C 001:970 JLINK_WriteReg(R10, 0x00000000)  returns 0x00 (0000ms, 1085ms total)
T151C 001:970 JLINK_WriteReg(R11, 0x00000000)  returns 0x00 (0000ms, 1085ms total)
T151C 001:970 JLINK_WriteReg(R12, 0x00000000)  returns 0x00 (0000ms, 1085ms total)
T151C 001:970 JLINK_WriteReg(R13, 0x20000800)  returns 0x00 (0000ms, 1085ms total)
T151C 001:970 JLINK_WriteReg(R14, 0x20000001)  returns 0x00 (0000ms, 1085ms total)
T151C 001:970 JLINK_WriteReg(R15, 0x200000F4)  returns 0x00 (0000ms, 1085ms total)
T151C 001:970 JLINK_WriteReg(XPSR, 0x01000000)  returns 0x00 (0000ms, 1085ms total)
T151C 001:970 JLINK_WriteReg(MSP, 0x20000800)  returns 0x00 (0000ms, 1085ms total)
T151C 001:970 JLINK_WriteReg(PSP, 0x20000800)  returns 0x00 (0000ms, 1085ms total)
T151C 001:970 JLINK_WriteReg(CFBP, 0x00000000)  returns 0x00 (0000ms, 1085ms total)
T151C 001:970 JLINK_SetBPEx(Addr = 0x20000000, Type = 0xFFFFFFF2)  returns 0x00000011 (0000ms, 1085ms total)
T151C 001:970 JLINK_Go() -- CPU_WriteMem(4 bytes @ 0xE0002008) -- CPU_WriteMem(4 bytes @ 0xE000200C) -- CPU_WriteMem(4 bytes @ 0xE0002010) -- CPU_WriteMem(4 bytes @ 0xE0002014) -- CPU_WriteMem(4 bytes @ 0xE0002018) -- CPU_WriteMem(4 bytes @ 0xE000201C) (0008ms, 1085ms total)
T151C 001:978 JLINK_IsHalted()  returns FALSE (0001ms, 1093ms total)
T151C 002:030 JLINK_IsHalted() -- CPU_ReadMem(2 bytes @ 0x20000000)  returns TRUE (0007ms, 1093ms total)
T151C 002:037 JLINK_ReadReg(R15)  returns 0x20000000 (0000ms, 1093ms total)
T151C 002:037 JLINK_ClrBPEx(BPHandle = 0x00000011)  returns 0x00 (0000ms, 1093ms total)
T151C 002:037 JLINK_ReadReg(R0)  returns 0x00000000 (0000ms, 1093ms total)
T151C 002:037 JLINK_WriteMem(0x20000164, 0x0400 Bytes, ...) -- Data:  FE E7 FE E7 FE E7 FE E7 FE E7 FE E7 FE E7 FE E7 ... -- CPU_WriteMem(1024 bytes @ 0x20000164)  returns 0x400 (0012ms, 1093ms total)
T151C 002:049 JLINK_WriteReg(R0, 0x08003400)  returns 0x00 (0000ms, 1105ms total)
T151C 002:049 JLINK_WriteReg(R1, 0x00000400)  returns 0x00 (0000ms, 1105ms total)
